T24AC 007:505 SEGGER J-Link V6.44a Log File (0034ms, 0039ms total)
T24AC 007:505 DLL Compiled: Mar  8 2019 17:31:48 (0034ms, 0039ms total)
T24AC 007:505 Logging started @ 2019-05-27 19:37 (0034ms, 0039ms total)
T24AC 007:505 WEBSRV 
Starting webserver (0050ms, 0055ms total)
T24AC 007:505 WEBSRV Webserver running on local port 19080 (0050ms, 0055ms total)
T24AC 007:505   returns O.K. (0050ms, 0055ms total)
T24AC 007:555 JLINK_GetEmuCaps()  returns 0xB8EA5A33 (0000ms, 0055ms total)
T24AC 007:556 JLINK_TIF_GetAvailable(...) (0000ms, 0055ms total)
T24AC 007:556 JLINK_SetErrorOutHandler(...) (0000ms, 0055ms total)
T24AC 007:556 JLINK_ExecCommand("ProjectFile = "F:\Eigene Dokumente\Dropbox\Dropbox\Hardware\Hoverboard\AT32F4xx_StdPeriph_Lib_V1.0.8\Project\Examples\AT_START_F403\ADC\3ADCs_DMA\MDK_v5\JLinkSettings.ini"", ...). Device "CORTEX-M4" selected.  returns 0x00 (0031ms, 0086ms total)
T24AC 007:589 JLINK_ExecCommand("Device = AT32F403ZC", ...). Device "CORTEX-M4" selected.  returns 0x00 (0006ms, 0092ms total)
T24AC 007:595 JLINK_ExecCommand("DisableConnectionTimeout", ...).   returns 0x01 (0000ms, 0092ms total)
T24AC 007:595 JLINK_GetHardwareVersion()  returns 0x2710 (0000ms, 0092ms total)
T24AC 007:595 JLINK_GetDLLVersion()  returns 64401 (0000ms, 0092ms total)
T24AC 007:595 JLINK_GetFirmwareString(...) (0000ms, 0092ms total)
T24AC 007:600 JLINK_GetDLLVersion()  returns 64401 (0000ms, 0092ms total)
T24AC 007:600 JLINK_GetCompileDateTime() (0000ms, 0092ms total)
T24AC 007:602 JLINK_GetFirmwareString(...) (0000ms, 0092ms total)
T24AC 007:604 JLINK_GetHardwareVersion()  returns 0x2710 (0000ms, 0092ms total)
T24AC 007:721 JLINK_TIF_Select(JLINKARM_TIF_SWD)  returns 0x00 (0001ms, 0093ms total)
T24AC 007:722 JLINK_SetSpeed(5000) (0001ms, 0094ms total)
T24AC 007:723 JLINK_GetId() >0x10B TIF>Found SW-DP with ID 0x2BA01477 >0x0D TIF> >0x28 TIF> >0x0D TIF> >0x28 TIF> >0x0D TIF> >0x28 TIF> >0x0D TIF> >0x28 TIF> >0x0D TIF> >0x21 TIF> >0x0D TIF> >0x28 TIF>Scanning AP map to find all available APs >0x0D TIF> >0x28 TIF> >0x0D TIF> >0x21 TIF> >0x0D TIF> >0x21 TIF> >0x0D TIF> >0x28 TIF> >0x0D TIF> >0x21 TIF> >0x0D TIF> >0x21 TIF>AP[1]: Stopped AP scan as end of AP map has been reachedAP[0]: AHB-AP (IDR: 0x24770011)Iterating through AP map to find AHB-AP to use
 >0x42 TIF> >0x28 TIF> >0x0D TIF> >0x28 TIF> >0x0D TIF> >0x21 TIF> >0x0D TIF> >0x21 TIF> >0x42 TIF> >0x28 TIF> >0x0D TIF> >0x28 TIF> >0x0D TIF> >0x28 TIF> >0x0D TIF> >0x21 TIF> >0x0D TIF> >0x21 TIF>AP[0]: Core foundAP[0]: AHB-AP ROM base: 0xE00FF000 >0x0D TIF> >0x28 TIF> >0x0D TIF> >0x28 TIF> >0x0D TIF> >0x28 TIF> >0x0D TIF> >0x21 TIF> >0x0D TIF> >0x21 TIF>CPUID register: 0x410FC241. Implementer code: 0x41 (ARM)Found Cortex-M4 r0p1, Little endian. -- Max. mem block: 0x000016B8
 -- CPU_ReadMem(4 bytes @ 0xE000EDF0) -- CPU_WriteMem(4 bytes @ 0xE000EDF0) -- CPU_ReadMem(4 bytes @ 0xE0002000)FPUnit: 6 code (BP) slots and 2 literal slots -- CPU_ReadMem(4 bytes @ 0xE000EDFC) -- CPU_WriteMem(4 bytes @ 0xE000EDFC) -- CPU_ReadMem(4 bytes @ 0xE0001000) -- CPU_WriteMem(4 bytes @ 0xE0001000) -- CPU_ReadMem(4 bytes @ 0xE000ED88) -- CPU_WriteMem(4 bytes @ 0xE000ED88) -- CPU_ReadMem(4 bytes @ 0xE000ED88) -- CPU_WriteMem(4 bytes @ 0xE000ED88)CoreSight components:ROMTbl[0] @ E00FF000
 -- CPU_ReadMem(16 bytes @ 0xE00FF000) -- CPU_ReadMem(16 bytes @ 0xE000EFF0) -- CPU_ReadMem(16 bytes @ 0xE000EFE0)ROMTbl[0][0]: E000E000, CID: B105E00D, PID: 000BB00C SCS-M7 -- CPU_ReadMem(16 bytes @ 0xE0001FF0) -- CPU_ReadMem(16 bytes @ 0xE0001FE0)ROMTbl[0][1]: E0001000, CID: B105E00D, PID: 003BB002 DWT -- CPU_ReadMem(16 bytes @ 0xE0002FF0) -- CPU_ReadMem(16 bytes @ 0xE0002FE0)ROMTbl[0][2]: E0002000, CID: B105E00D, PID: 002BB003 FPB -- CPU_ReadMem(16 bytes @ 0xE0000FF0)
 -- CPU_ReadMem(16 bytes @ 0xE0000FE0)ROMTbl[0][3]: E0000000, CID: B105E00D, PID: 003BB001 ITM -- CPU_ReadMem(16 bytes @ 0xE00FF010) -- CPU_ReadMem(16 bytes @ 0xE0040FF0) -- CPU_ReadMem(16 bytes @ 0xE0040FE0)ROMTbl[0][4]: E0040000, CID: B105900D, PID: 000BB9A1 TPIU -- CPU_ReadMem(16 bytes @ 0xE0041FF0) -- CPU_ReadMem(16 bytes @ 0xE0041FE0)ROMTbl[0][5]: E0041000, CID: B105900D, PID: 000BB925 ETM >0x0D TIF> >0x21 TIF>  returns 0x2BA01477 (0202ms, 0296ms total)
T24AC 007:925 JLINK_GetDLLVersion()  returns 64401 (0000ms, 0296ms total)
T24AC 007:925 JLINK_CORE_GetFound()  returns 0xE0000FF (0000ms, 0296ms total)
T24AC 007:925 JLINK_GetDebugInfo(0x100 = JLINKARM_ROM_TABLE_ADDR_INDEX) -- Value=0xE00FF000  returns 0x00 (0000ms, 0296ms total)
T24AC 007:929 JLINK_GetDebugInfo(0x100 = JLINKARM_ROM_TABLE_ADDR_INDEX) -- Value=0xE00FF000  returns 0x00 (0000ms, 0296ms total)
T24AC 007:929 JLINK_GetDebugInfo(0x101 = JLINKARM_DEBUG_INFO_ETM_ADDR_INDEX) -- Value=0xE0041000  returns 0x00 (0000ms, 0296ms total)
T24AC 007:929 JLINK_ReadMemEx(0xE0041FD0, 0x0020 Bytes, ..., Flags = 0x02000004) -- CPU_ReadMem(32 bytes @ 0xE0041FD0) - Data: 04 00 00 00 00 00 00 00 00 00 00 00 00 00 00 00 ...  returns 0x20 (0001ms, 0297ms total)
T24AC 007:930 JLINK_GetDebugInfo(0x102 = JLINKARM_DEBUG_INFO_MTB_ADDR_INDEX) -- Value=0x00000000  returns 0x00 (0000ms, 0297ms total)
T24AC 007:930 JLINK_GetDebugInfo(0x103 = JLINKARM_DEBUG_INFO_TPIU_ADDR_INDEX) -- Value=0xE0040000  returns 0x00 (0000ms, 0297ms total)
T24AC 007:930 JLINK_GetDebugInfo(0x104 = JLINKARM_DEBUG_INFO_ITM_ADDR_INDEX) -- Value=0xE0000000  returns 0x00 (0000ms, 0297ms total)
T24AC 007:930 JLINK_GetDebugInfo(0x105 = JLINKARM_DEBUG_INFO_DWT_ADDR_INDEX) -- Value=0xE0001000  returns 0x00 (0000ms, 0297ms total)
T24AC 007:930 JLINK_GetDebugInfo(0x106 = JLINKARM_DEBUG_INFO_FPB_ADDR_INDEX) -- Value=0xE0002000  returns 0x00 (0000ms, 0297ms total)
T24AC 007:930 JLINK_GetDebugInfo(0x107 = JLINKARM_DEBUG_INFO_NVIC_ADDR_INDEX) -- Value=0xE000E000  returns 0x00 (0000ms, 0297ms total)
T24AC 007:930 JLINK_GetDebugInfo(0x10C = JLINKARM_DEBUG_INFO_DBG_ADDR_INDEX) -- Value=0xE000EDF0  returns 0x00 (0000ms, 0297ms total)
T24AC 007:930 JLINK_GetDebugInfo(0x01 = Unknown) -- Value=0x00000001  returns 0x00 (0000ms, 0297ms total)
T24AC 007:930 JLINK_ReadMemU32(0xE000ED00, 0x0001 Items, ...) -- CPU_ReadMem(4 bytes @ 0xE000ED00) - Data: 41 C2 0F 41  returns 1 (0000ms, 0297ms total)
T24AC 007:930 JLINK_GetDebugInfo(0x10F = JLINKARM_DEBUG_INFO_HAS_CORTEX_M_SECURITY_EXT_INDEX) -- Value=0x00000000  returns 0x00 (0000ms, 0297ms total)
T24AC 007:930 JLINK_SetResetType(JLINKARM_CM3_RESET_TYPE_NORMAL)  returns JLINKARM_CM3_RESET_TYPE_NORMAL (0000ms, 0297ms total)
T24AC 007:930 JLINK_Reset() -- CPU is running -- CPU_WriteMem(4 bytes @ 0xE000EDF0) -- CPU is running -- CPU_WriteMem(4 bytes @ 0xE000EDFC)Reset: Halt core after reset via DEMCR.VC_CORERESET. >0x35 TIF>Reset: Reset device via AIRCR.SYSRESETREQ. -- CPU is running -- CPU_WriteMem(4 bytes @ 0xE000ED0C) >0x0D TIF> >0x28 TIF> -- CPU_ReadMem(4 bytes @ 0xE000EDF0) -- CPU_ReadMem(4 bytes @ 0xE000EDF0) -- CPU is running -- CPU_WriteMem(4 bytes @ 0xE000EDF0) -- CPU is running -- CPU_WriteMem(4 bytes @ 0xE000EDFC)
 -- CPU_ReadMem(4 bytes @ 0xE000EDF0) -- CPU_WriteMem(4 bytes @ 0xE0002000) -- CPU_ReadMem(4 bytes @ 0xE000EDFC) -- CPU_ReadMem(4 bytes @ 0xE0001000) (0074ms, 0371ms total)
T24AC 008:004 JLINK_Halt()  returns 0x00 (0001ms, 0372ms total)
T24AC 008:005 JLINK_ReadMemU32(0xE000EDF0, 0x0001 Items, ...) -- CPU_ReadMem(4 bytes @ 0xE000EDF0) - Data: 03 00 03 00  returns 1 (0000ms, 0372ms total)
T24AC 008:005 JLINK_WriteU32(0xE000EDF0, 0xA05F0003) -- CPU_WriteMem(4 bytes @ 0xE000EDF0)  returns 0 (0001ms, 0373ms total)
T24AC 008:006 JLINK_WriteU32(0xE000EDFC, 0x01000000) -- CPU_WriteMem(4 bytes @ 0xE000EDFC)  returns 0 (0000ms, 0373ms total)
T24AC 008:020 JLINK_GetHWStatus(...)  returns 0x00 (0001ms, 0374ms total)
T24AC 008:031 JLINK_GetNumBPUnits(Type = 0xFFFFFF00)  returns 0x06 (0000ms, 0374ms total)
T24AC 008:032 JLINK_GetNumBPUnits(Type = 0xF0)  returns 0x2000 (0000ms, 0375ms total)
T24AC 008:032 JLINK_GetNumWPUnits()  returns 0x04 (0000ms, 0375ms total)
T24AC 008:042 JLINK_GetSpeed()  returns 0xFA0 (0000ms, 0375ms total)
T24AC 008:048 JLINK_ReadMemU32(0xE000E004, 0x0001 Items, ...) -- CPU_ReadMem(4 bytes @ 0xE000E004) - Data: 02 00 00 00  returns 1 (0001ms, 0376ms total)
T24AC 008:049 JLINK_ReadMemU32(0xE000E004, 0x0001 Items, ...) -- CPU_ReadMem(4 bytes @ 0xE000E004) - Data: 02 00 00 00  returns 1 (0000ms, 0376ms total)
T24AC 008:049 JLINK_WriteMemEx(0xE0001000, 0x001C Bytes, ..., Flags = 0x02000004) - Data: 01 00 00 00 00 00 00 00 00 00 00 00 00 00 00 00 ... -- CPU_WriteMem(28 bytes @ 0xE0001000)  returns 0x1C (0002ms, 0378ms total)
T24AC 008:058 JLINK_Halt()  returns 0x00 (0000ms, 0378ms total)
T24AC 008:058 JLINK_IsHalted()  returns TRUE (0000ms, 0378ms total)
T24AC 008:092 JLINK_WriteMem(0x20000000, 0x0178 Bytes, ...) - Data: 00 BE 0A E0 0D 78 2D 06 68 40 08 24 40 00 00 D3 ... -- CPU_WriteMem(376 bytes @ 0x20000000)  returns 0x178 (0003ms, 0381ms total)
T24AC 008:096 JLINK_WriteReg(R0, 0x08000000)  returns 0x00 (0000ms, 0381ms total)
T24AC 008:096 JLINK_WriteReg(R1, 0x00B71B00)  returns 0x00 (0000ms, 0381ms total)
T24AC 008:096 JLINK_WriteReg(R2, 0x00000001)  returns 0x00 (0000ms, 0381ms total)
T24AC 008:096 JLINK_WriteReg(R3, 0x00000000)  returns 0x00 (0000ms, 0381ms total)
T24AC 008:096 JLINK_WriteReg(R4, 0x00000000)  returns 0x00 (0000ms, 0381ms total)
T24AC 008:096 JLINK_WriteReg(R5, 0x00000000)  returns 0x00 (0000ms, 0381ms total)
T24AC 008:096 JLINK_WriteReg(R6, 0x00000000)  returns 0x00 (0000ms, 0381ms total)
T24AC 008:096 JLINK_WriteReg(R7, 0x00000000)  returns 0x00 (0000ms, 0381ms total)
T24AC 008:096 JLINK_WriteReg(R8, 0x00000000)  returns 0x00 (0000ms, 0381ms total)
T24AC 008:096 JLINK_WriteReg(R9, 0x20000174)  returns 0x00 (0000ms, 0381ms total)
T24AC 008:096 JLINK_WriteReg(R10, 0x00000000)  returns 0x00 (0000ms, 0381ms total)
T24AC 008:096 JLINK_WriteReg(R11, 0x00000000)  returns 0x00 (0000ms, 0381ms total)
T24AC 008:096 JLINK_WriteReg(R12, 0x00000000)  returns 0x00 (0000ms, 0381ms total)
T24AC 008:096 JLINK_WriteReg(R13 (SP), 0x20001000)  returns 0x00 (0000ms, 0381ms total)
T24AC 008:096 JLINK_WriteReg(R14, 0x20000001)  returns 0x00 (0000ms, 0381ms total)
T24AC 008:096 JLINK_WriteReg(R15 (PC), 0x20000038)  returns 0x00 (0000ms, 0381ms total)
T24AC 008:096 JLINK_WriteReg(XPSR, 0x01000000)  returns 0x00 (0000ms, 0381ms total)
T24AC 008:096 JLINK_WriteReg(MSP, 0x20001000)  returns 0x00 (0000ms, 0381ms total)
T24AC 008:096 JLINK_WriteReg(PSP, 0x20001000)  returns 0x00 (0000ms, 0381ms total)
T24AC 008:096 JLINK_WriteReg(CFBP, 0x00000000)  returns 0x00 (0000ms, 0381ms total)
T24AC 008:096 JLINK_SetBPEx(Addr = 0x20000000, Type = 0xFFFFFFF2) -- CPU_ReadMem(4 bytes @ 0x20000000) -- CPU_WriteMem(4 bytes @ 0x20000000) -- CPU_ReadMem(4 bytes @ 0x20000000) -- CPU_WriteMem(4 bytes @ 0x20000000) -- CPU_ReadMem(2 bytes @ 0x20000000)  returns 0x00000001 (0002ms, 0383ms total)
T24AC 008:098 JLINK_Go() -- CPU_WriteMem(2 bytes @ 0x20000000) -- CPU_ReadMem(4 bytes @ 0xE0001000) -- CPU_WriteMem(4 bytes @ 0xE0002008) -- CPU_WriteMem(4 bytes @ 0xE000200C) -- CPU_WriteMem(4 bytes @ 0xE0002010) -- CPU_WriteMem(4 bytes @ 0xE0002014) -- CPU_WriteMem(4 bytes @ 0xE0002018) -- CPU_WriteMem(4 bytes @ 0xE000201C) -- CPU_WriteMem(4 bytes @ 0xE0001004) (0007ms, 0390ms total)
T24AC 008:105 JLINK_IsHalted() -- CPU_ReadMem(2 bytes @ 0x20000000)  returns TRUE (0003ms, 0393ms total)
T24AC 008:108 JLINK_ReadReg(R15 (PC))  returns 0x20000000 (0000ms, 0390ms total)
T24AC 008:108 JLINK_ClrBPEx(BPHandle = 0x00000001)  returns 0x00 (0000ms, 0390ms total)
T24AC 008:108 JLINK_ReadReg(R0)  returns 0x00000000 (0000ms, 0390ms total)
T24AC 008:109 JLINK_WriteReg(R0, 0x08000000)  returns 0x00 (0000ms, 0390ms total)
T24AC 008:109 JLINK_WriteReg(R1, 0x00000800)  returns 0x00 (0000ms, 0390ms total)
T24AC 008:109 JLINK_WriteReg(R2, 0x000000FF)  returns 0x00 (0000ms, 0390ms total)
T24AC 008:109 JLINK_WriteReg(R3, 0x00000000)  returns 0x00 (0000ms, 0390ms total)
T24AC 008:109 JLINK_WriteReg(R4, 0x00000000)  returns 0x00 (0000ms, 0390ms total)
T24AC 008:109 JLINK_WriteReg(R5, 0x00000000)  returns 0x00 (0000ms, 0390ms total)
T24AC 008:109 JLINK_WriteReg(R6, 0x00000000)  returns 0x00 (0000ms, 0390ms total)
T24AC 008:109 JLINK_WriteReg(R7, 0x00000000)  returns 0x00 (0000ms, 0390ms total)
T24AC 008:109 JLINK_WriteReg(R8, 0x00000000)  returns 0x00 (0000ms, 0390ms total)
T24AC 008:109 JLINK_WriteReg(R9, 0x20000174)  returns 0x00 (0000ms, 0390ms total)
T24AC 008:109 JLINK_WriteReg(R10, 0x00000000)  returns 0x00 (0000ms, 0390ms total)
T24AC 008:109 JLINK_WriteReg(R11, 0x00000000)  returns 0x00 (0000ms, 0390ms total)
T24AC 008:109 JLINK_WriteReg(R12, 0x00000000)  returns 0x00 (0000ms, 0390ms total)
T24AC 008:109 JLINK_WriteReg(R13 (SP), 0x20001000)  returns 0x00 (0000ms, 0390ms total)
T24AC 008:109 JLINK_WriteReg(R14, 0x20000001)  returns 0x00 (0000ms, 0390ms total)
T24AC 008:109 JLINK_WriteReg(R15 (PC), 0x20000020)  returns 0x00 (0000ms, 0390ms total)
T24AC 008:109 JLINK_WriteReg(XPSR, 0x01000000)  returns 0x00 (0000ms, 0390ms total)
T24AC 008:109 JLINK_WriteReg(MSP, 0x20001000)  returns 0x00 (0000ms, 0390ms total)
T24AC 008:109 JLINK_WriteReg(PSP, 0x20001000)  returns 0x00 (0000ms, 0390ms total)
T24AC 008:109 JLINK_WriteReg(CFBP, 0x00000000)  returns 0x00 (0000ms, 0390ms total)
T24AC 008:109 JLINK_SetBPEx(Addr = 0x20000000, Type = 0xFFFFFFF2)  returns 0x00000002 (0000ms, 0390ms total)
T24AC 008:109 JLINK_Go() -- CPU_ReadMem(4 bytes @ 0xE0001000) (0004ms, 0394ms total)
T24AC 008:113 JLINK_IsHalted() -- CPU_ReadMem(2 bytes @ 0x20000000)  returns TRUE (0004ms, 0398ms total)
T24AC 008:117 JLINK_ReadReg(R15 (PC))  returns 0x20000000 (0000ms, 0394ms total)
T24AC 008:117 JLINK_ClrBPEx(BPHandle = 0x00000002)  returns 0x00 (0000ms, 0394ms total)
T24AC 008:117 JLINK_ReadReg(R0)  returns 0x00000001 (0000ms, 0394ms total)
T24AC 008:117 JLINK_WriteReg(R0, 0x08000000)  returns 0x00 (0000ms, 0394ms total)
T24AC 008:117 JLINK_WriteReg(R1, 0x00000800)  returns 0x00 (0000ms, 0394ms total)
T24AC 008:117 JLINK_WriteReg(R2, 0x000000FF)  returns 0x00 (0000ms, 0394ms total)
T24AC 008:117 JLINK_WriteReg(R3, 0x00000000)  returns 0x00 (0000ms, 0394ms total)
T24AC 008:117 JLINK_WriteReg(R4, 0x00000000)  returns 0x00 (0000ms, 0394ms total)
T24AC 008:117 JLINK_WriteReg(R5, 0x00000000)  returns 0x00 (0000ms, 0394ms total)
T24AC 008:117 JLINK_WriteReg(R6, 0x00000000)  returns 0x00 (0000ms, 0394ms total)
T24AC 008:117 JLINK_WriteReg(R7, 0x00000000)  returns 0x00 (0000ms, 0394ms total)
T24AC 008:117 JLINK_WriteReg(R8, 0x00000000)  returns 0x00 (0000ms, 0394ms total)
T24AC 008:117 JLINK_WriteReg(R9, 0x20000174)  returns 0x00 (0000ms, 0394ms total)
T24AC 008:117 JLINK_WriteReg(R10, 0x00000000)  returns 0x00 (0000ms, 0394ms total)
T24AC 008:117 JLINK_WriteReg(R11, 0x00000000)  returns 0x00 (0000ms, 0394ms total)
T24AC 008:117 JLINK_WriteReg(R12, 0x00000000)  returns 0x00 (0000ms, 0394ms total)
T24AC 008:117 JLINK_WriteReg(R13 (SP), 0x20001000)  returns 0x00 (0000ms, 0394ms total)
T24AC 008:117 JLINK_WriteReg(R14, 0x20000001)  returns 0x00 (0000ms, 0394ms total)
T24AC 008:117 JLINK_WriteReg(R15 (PC), 0x200000B4)  returns 0x00 (0000ms, 0394ms total)
T24AC 008:117 JLINK_WriteReg(XPSR, 0x01000000)  returns 0x00 (0000ms, 0394ms total)
T24AC 008:117 JLINK_WriteReg(MSP, 0x20001000)  returns 0x00 (0000ms, 0394ms total)
T24AC 008:117 JLINK_WriteReg(PSP, 0x20001000)  returns 0x00 (0000ms, 0394ms total)
T24AC 008:117 JLINK_WriteReg(CFBP, 0x00000000)  returns 0x00 (0000ms, 0394ms total)
T24AC 008:117 JLINK_SetBPEx(Addr = 0x20000000, Type = 0xFFFFFFF2)  returns 0x00000003 (0000ms, 0394ms total)
T24AC 008:117 JLINK_Go() -- CPU_ReadMem(4 bytes @ 0xE0001000) (0004ms, 0398ms total)
T24AC 008:121 JLINK_IsHalted()  returns FALSE (0001ms, 0399ms total)
T24AC 008:146 JLINK_IsHalted()  returns FALSE (0000ms, 0398ms total)
T24AC 008:148 JLINK_IsHalted()  returns FALSE (0000ms, 0398ms total)
T24AC 008:150 JLINK_IsHalted()  returns FALSE (0000ms, 0398ms total)
T24AC 008:152 JLINK_IsHalted()  returns FALSE (0000ms, 0398ms total)
T24AC 008:158 JLINK_IsHalted() -- CPU_ReadMem(2 bytes @ 0x20000000)  returns TRUE (0003ms, 0401ms total)
T24AC 008:161 JLINK_ReadReg(R15 (PC))  returns 0x20000000 (0000ms, 0398ms total)
T24AC 008:161 JLINK_ClrBPEx(BPHandle = 0x00000003)  returns 0x00 (0000ms, 0398ms total)
T24AC 008:161 JLINK_ReadReg(R0)  returns 0x00000000 (0000ms, 0398ms total)
T24AC 008:162 JLINK_WriteReg(R0, 0x08000800)  returns 0x00 (0000ms, 0398ms total)
T24AC 008:162 JLINK_WriteReg(R1, 0x00000800)  returns 0x00 (0000ms, 0398ms total)
T24AC 008:162 JLINK_WriteReg(R2, 0x000000FF)  returns 0x00 (0000ms, 0398ms total)
T24AC 008:162 JLINK_WriteReg(R3, 0x00000000)  returns 0x00 (0000ms, 0398ms total)
T24AC 008:162 JLINK_WriteReg(R4, 0x00000000)  returns 0x00 (0000ms, 0398ms total)
T24AC 008:162 JLINK_WriteReg(R5, 0x00000000)  returns 0x00 (0000ms, 0398ms total)
T24AC 008:162 JLINK_WriteReg(R6, 0x00000000)  returns 0x00 (0000ms, 0398ms total)
T24AC 008:162 JLINK_WriteReg(R7, 0x00000000)  returns 0x00 (0000ms, 0398ms total)
T24AC 008:162 JLINK_WriteReg(R8, 0x00000000)  returns 0x00 (0000ms, 0398ms total)
T24AC 008:162 JLINK_WriteReg(R9, 0x20000174)  returns 0x00 (0000ms, 0398ms total)
T24AC 008:162 JLINK_WriteReg(R10, 0x00000000)  returns 0x00 (0000ms, 0398ms total)
T24AC 008:162 JLINK_WriteReg(R11, 0x00000000)  returns 0x00 (0000ms, 0398ms total)
T24AC 008:162 JLINK_WriteReg(R12, 0x00000000)  returns 0x00 (0000ms, 0398ms total)
T24AC 008:162 JLINK_WriteReg(R13 (SP), 0x20001000)  returns 0x00 (0000ms, 0398ms total)
T24AC 008:162 JLINK_WriteReg(R14, 0x20000001)  returns 0x00 (0000ms, 0398ms total)
T24AC 008:162 JLINK_WriteReg(R15 (PC), 0x20000020)  returns 0x00 (0000ms, 0398ms total)
T24AC 008:162 JLINK_WriteReg(XPSR, 0x01000000)  returns 0x00 (0000ms, 0398ms total)
T24AC 008:162 JLINK_WriteReg(MSP, 0x20001000)  returns 0x00 (0000ms, 0398ms total)
T24AC 008:162 JLINK_WriteReg(PSP, 0x20001000)  returns 0x00 (0000ms, 0398ms total)
T24AC 008:162 JLINK_WriteReg(CFBP, 0x00000000)  returns 0x00 (0000ms, 0398ms total)
T24AC 008:162 JLINK_SetBPEx(Addr = 0x20000000, Type = 0xFFFFFFF2)  returns 0x00000004 (0000ms, 0398ms total)
T24AC 008:162 JLINK_Go() -- CPU_ReadMem(4 bytes @ 0xE0001000) (0003ms, 0401ms total)
T24AC 008:165 JLINK_IsHalted() -- CPU_ReadMem(2 bytes @ 0x20000000)  returns TRUE (0003ms, 0404ms total)
T24AC 008:168 JLINK_ReadReg(R15 (PC))  returns 0x20000000 (0001ms, 0402ms total)
T24AC 008:169 JLINK_ClrBPEx(BPHandle = 0x00000004)  returns 0x00 (0000ms, 0402ms total)
T24AC 008:169 JLINK_ReadReg(R0)  returns 0x00000001 (0000ms, 0402ms total)
T24AC 008:169 JLINK_WriteReg(R0, 0x08000800)  returns 0x00 (0000ms, 0402ms total)
T24AC 008:169 JLINK_WriteReg(R1, 0x00000800)  returns 0x00 (0000ms, 0402ms total)
T24AC 008:169 JLINK_WriteReg(R2, 0x000000FF)  returns 0x00 (0000ms, 0402ms total)
T24AC 008:169 JLINK_WriteReg(R3, 0x00000000)  returns 0x00 (0000ms, 0402ms total)
T24AC 008:169 JLINK_WriteReg(R4, 0x00000000)  returns 0x00 (0000ms, 0402ms total)
T24AC 008:169 JLINK_WriteReg(R5, 0x00000000)  returns 0x00 (0000ms, 0402ms total)
T24AC 008:169 JLINK_WriteReg(R6, 0x00000000)  returns 0x00 (0000ms, 0402ms total)
T24AC 008:169 JLINK_WriteReg(R7, 0x00000000)  returns 0x00 (0000ms, 0402ms total)
T24AC 008:169 JLINK_WriteReg(R8, 0x00000000)  returns 0x00 (0000ms, 0402ms total)
T24AC 008:169 JLINK_WriteReg(R9, 0x20000174)  returns 0x00 (0000ms, 0402ms total)
T24AC 008:169 JLINK_WriteReg(R10, 0x00000000)  returns 0x00 (0000ms, 0402ms total)
T24AC 008:169 JLINK_WriteReg(R11, 0x00000000)  returns 0x00 (0000ms, 0402ms total)
T24AC 008:169 JLINK_WriteReg(R12, 0x00000000)  returns 0x00 (0000ms, 0402ms total)
T24AC 008:169 JLINK_WriteReg(R13 (SP), 0x20001000)  returns 0x00 (0000ms, 0402ms total)
T24AC 008:169 JLINK_WriteReg(R14, 0x20000001)  returns 0x00 (0000ms, 0402ms total)
T24AC 008:169 JLINK_WriteReg(R15 (PC), 0x200000B4)  returns 0x00 (0000ms, 0402ms total)
T24AC 008:169 JLINK_WriteReg(XPSR, 0x01000000)  returns 0x00 (0000ms, 0402ms total)
T24AC 008:169 JLINK_WriteReg(MSP, 0x20001000)  returns 0x00 (0000ms, 0402ms total)
T24AC 008:169 JLINK_WriteReg(PSP, 0x20001000)  returns 0x00 (0000ms, 0402ms total)
T24AC 008:169 JLINK_WriteReg(CFBP, 0x00000000)  returns 0x00 (0000ms, 0402ms total)
T24AC 008:169 JLINK_SetBPEx(Addr = 0x20000000, Type = 0xFFFFFFF2)  returns 0x00000005 (0000ms, 0402ms total)
T24AC 008:169 JLINK_Go() -- CPU_ReadMem(4 bytes @ 0xE0001000) (0004ms, 0406ms total)
T24AC 008:173 JLINK_IsHalted()  returns FALSE (0000ms, 0406ms total)
T24AC 008:176 JLINK_IsHalted()  returns FALSE (0000ms, 0406ms total)
T24AC 008:178 JLINK_IsHalted()  returns FALSE (0000ms, 0406ms total)
T24AC 008:180 JLINK_IsHalted()  returns FALSE (0000ms, 0406ms total)
T24AC 008:182 JLINK_IsHalted()  returns FALSE (0000ms, 0406ms total)
T24AC 008:184 JLINK_IsHalted()  returns FALSE (0000ms, 0406ms total)
T24AC 008:186 JLINK_IsHalted()  returns FALSE (0000ms, 0406ms total)
T24AC 008:188 JLINK_IsHalted()  returns FALSE (0000ms, 0406ms total)
T24AC 008:190 JLINK_IsHalted()  returns FALSE (0000ms, 0406ms total)
T24AC 008:192 JLINK_IsHalted()  returns FALSE (0000ms, 0406ms total)
T24AC 008:194 JLINK_IsHalted()  returns FALSE (0000ms, 0406ms total)
T24AC 008:196 JLINK_IsHalted()  returns FALSE (0000ms, 0406ms total)
T24AC 008:198 JLINK_IsHalted()  returns FALSE (0000ms, 0406ms total)
T24AC 008:200 JLINK_IsHalted()  returns FALSE (0000ms, 0406ms total)
T24AC 008:202 JLINK_IsHalted()  returns FALSE (0000ms, 0406ms total)
T24AC 008:204 JLINK_IsHalted() -- CPU_ReadMem(2 bytes @ 0x20000000)  returns TRUE (0002ms, 0408ms total)
T24AC 008:206 JLINK_ReadReg(R15 (PC))  returns 0x20000000 (0000ms, 0406ms total)
T24AC 008:206 JLINK_ClrBPEx(BPHandle = 0x00000005)  returns 0x00 (0000ms, 0406ms total)
T24AC 008:206 JLINK_ReadReg(R0)  returns 0x00000000 (0000ms, 0406ms total)
T24AC 008:207 JLINK_WriteReg(R0, 0x00000001)  returns 0x00 (0000ms, 0406ms total)
T24AC 008:207 JLINK_WriteReg(R1, 0x00000800)  returns 0x00 (0000ms, 0406ms total)
T24AC 008:207 JLINK_WriteReg(R2, 0x000000FF)  returns 0x00 (0000ms, 0406ms total)
T24AC 008:207 JLINK_WriteReg(R3, 0x00000000)  returns 0x00 (0000ms, 0406ms total)
T24AC 008:207 JLINK_WriteReg(R4, 0x00000000)  returns 0x00 (0000ms, 0406ms total)
T24AC 008:207 JLINK_WriteReg(R5, 0x00000000)  returns 0x00 (0000ms, 0406ms total)
T24AC 008:207 JLINK_WriteReg(R6, 0x00000000)  returns 0x00 (0000ms, 0406ms total)
T24AC 008:207 JLINK_WriteReg(R7, 0x00000000)  returns 0x00 (0000ms, 0406ms total)
T24AC 008:207 JLINK_WriteReg(R8, 0x00000000)  returns 0x00 (0000ms, 0406ms total)
T24AC 008:207 JLINK_WriteReg(R9, 0x20000174)  returns 0x00 (0000ms, 0406ms total)
T24AC 008:207 JLINK_WriteReg(R10, 0x00000000)  returns 0x00 (0000ms, 0406ms total)
T24AC 008:207 JLINK_WriteReg(R11, 0x00000000)  returns 0x00 (0000ms, 0406ms total)
T24AC 008:207 JLINK_WriteReg(R12, 0x00000000)  returns 0x00 (0000ms, 0406ms total)
T24AC 008:207 JLINK_WriteReg(R13 (SP), 0x20001000)  returns 0x00 (0000ms, 0406ms total)
T24AC 008:207 JLINK_WriteReg(R14, 0x20000001)  returns 0x00 (0000ms, 0406ms total)
T24AC 008:207 JLINK_WriteReg(R15 (PC), 0x20000066)  returns 0x00 (0000ms, 0406ms total)
T24AC 008:207 JLINK_WriteReg(XPSR, 0x01000000)  returns 0x00 (0000ms, 0406ms total)
T24AC 008:207 JLINK_WriteReg(MSP, 0x20001000)  returns 0x00 (0000ms, 0406ms total)
T24AC 008:207 JLINK_WriteReg(PSP, 0x20001000)  returns 0x00 (0000ms, 0406ms total)
T24AC 008:207 JLINK_WriteReg(CFBP, 0x00000000)  returns 0x00 (0000ms, 0406ms total)
T24AC 008:207 JLINK_SetBPEx(Addr = 0x20000000, Type = 0xFFFFFFF2)  returns 0x00000006 (0000ms, 0406ms total)
T24AC 008:207 JLINK_Go() -- CPU_ReadMem(4 bytes @ 0xE0001000) (0004ms, 0410ms total)
T24AC 008:211 JLINK_IsHalted() -- CPU_ReadMem(2 bytes @ 0x20000000)  returns TRUE (0004ms, 0414ms total)
T24AC 008:215 JLINK_ReadReg(R15 (PC))  returns 0x20000000 (0000ms, 0410ms total)
T24AC 008:215 JLINK_ClrBPEx(BPHandle = 0x00000006)  returns 0x00 (0000ms, 0410ms total)
T24AC 008:215 JLINK_ReadReg(R0)  returns 0x00000000 (0000ms, 0410ms total)
T24AC 008:273 JLINK_WriteMem(0x20000000, 0x0178 Bytes, ...) - Data: 00 BE 0A E0 0D 78 2D 06 68 40 08 24 40 00 00 D3 ... -- CPU_WriteMem(376 bytes @ 0x20000000)  returns 0x178 (0003ms, 0413ms total)
T24AC 008:276 JLINK_WriteReg(R0, 0x08000000)  returns 0x00 (0000ms, 0413ms total)
T24AC 008:276 JLINK_WriteReg(R1, 0x00B71B00)  returns 0x00 (0000ms, 0413ms total)
T24AC 008:276 JLINK_WriteReg(R2, 0x00000002)  returns 0x00 (0000ms, 0413ms total)
T24AC 008:276 JLINK_WriteReg(R3, 0x00000000)  returns 0x00 (0000ms, 0413ms total)
T24AC 008:276 JLINK_WriteReg(R4, 0x00000000)  returns 0x00 (0000ms, 0413ms total)
T24AC 008:276 JLINK_WriteReg(R5, 0x00000000)  returns 0x00 (0000ms, 0413ms total)
T24AC 008:276 JLINK_WriteReg(R6, 0x00000000)  returns 0x00 (0000ms, 0413ms total)
T24AC 008:276 JLINK_WriteReg(R7, 0x00000000)  returns 0x00 (0000ms, 0413ms total)
T24AC 008:276 JLINK_WriteReg(R8, 0x00000000)  returns 0x00 (0000ms, 0413ms total)
T24AC 008:276 JLINK_WriteReg(R9, 0x20000174)  returns 0x00 (0000ms, 0413ms total)
T24AC 008:276 JLINK_WriteReg(R10, 0x00000000)  returns 0x00 (0001ms, 0414ms total)
T24AC 008:277 JLINK_WriteReg(R11, 0x00000000)  returns 0x00 (0000ms, 0414ms total)
T24AC 008:277 JLINK_WriteReg(R12, 0x00000000)  returns 0x00 (0000ms, 0414ms total)
T24AC 008:277 JLINK_WriteReg(R13 (SP), 0x20001000)  returns 0x00 (0000ms, 0414ms total)
T24AC 008:277 JLINK_WriteReg(R14, 0x20000001)  returns 0x00 (0000ms, 0414ms total)
T24AC 008:277 JLINK_WriteReg(R15 (PC), 0x20000038)  returns 0x00 (0000ms, 0414ms total)
T24AC 008:277 JLINK_WriteReg(XPSR, 0x01000000)  returns 0x00 (0000ms, 0414ms total)
T24AC 008:277 JLINK_WriteReg(MSP, 0x20001000)  returns 0x00 (0000ms, 0414ms total)
T24AC 008:277 JLINK_WriteReg(PSP, 0x20001000)  returns 0x00 (0000ms, 0414ms total)
T24AC 008:277 JLINK_WriteReg(CFBP, 0x00000000)  returns 0x00 (0000ms, 0414ms total)
T24AC 008:277 JLINK_SetBPEx(Addr = 0x20000000, Type = 0xFFFFFFF2) -- CPU_ReadMem(4 bytes @ 0x20000000) -- CPU_WriteMem(4 bytes @ 0x20000000) -- CPU_ReadMem(4 bytes @ 0x20000000) -- CPU_WriteMem(4 bytes @ 0x20000000) -- CPU_ReadMem(2 bytes @ 0x20000000)  returns 0x00000007 (0002ms, 0416ms total)
T24AC 008:279 JLINK_Go() -- CPU_WriteMem(2 bytes @ 0x20000000) -- CPU_ReadMem(4 bytes @ 0xE0001000) (0004ms, 0420ms total)
T24AC 008:283 JLINK_IsHalted() -- CPU_ReadMem(2 bytes @ 0x20000000)  returns TRUE (0003ms, 0423ms total)
T24AC 008:286 JLINK_ReadReg(R15 (PC))  returns 0x20000000 (0000ms, 0420ms total)
T24AC 008:286 JLINK_ClrBPEx(BPHandle = 0x00000007)  returns 0x00 (0000ms, 0420ms total)
T24AC 008:286 JLINK_ReadReg(R0)  returns 0x00000000 (0000ms, 0420ms total)
T24AC 008:286 JLINK_WriteMem(0x20000178, 0x0288 Bytes, ...) - Data: 58 04 00 20 65 01 00 08 7B 06 00 08 73 06 00 08 ... -- CPU_WriteMem(648 bytes @ 0x20000178)  returns 0x288 (0005ms, 0425ms total)
T24AC 008:291 JLINK_WriteMem(0x20000400, 0x0178 Bytes, ...) - Data: F0 B5 04 46 0D 46 00 20 00 21 09 2D 11 DD E0 68 ... -- CPU_WriteMem(376 bytes @ 0x20000400)  returns 0x178 (0002ms, 0427ms total)
T24AC 008:293 JLINK_WriteReg(R0, 0x08000000)  returns 0x00 (0000ms, 0427ms total)
T24AC 008:293 JLINK_WriteReg(R1, 0x00000400)  returns 0x00 (0000ms, 0427ms total)
T24AC 008:293 JLINK_WriteReg(R2, 0x20000178)  returns 0x00 (0000ms, 0427ms total)
T24AC 008:293 JLINK_WriteReg(R3, 0x00000000)  returns 0x00 (0000ms, 0427ms total)
T24AC 008:293 JLINK_WriteReg(R4, 0x00000000)  returns 0x00 (0000ms, 0427ms total)
T24AC 008:293 JLINK_WriteReg(R5, 0x00000000)  returns 0x00 (0000ms, 0427ms total)
T24AC 008:293 JLINK_WriteReg(R6, 0x00000000)  returns 0x00 (0000ms, 0427ms total)
T24AC 008:293 JLINK_WriteReg(R7, 0x00000000)  returns 0x00 (0000ms, 0427ms total)
T24AC 008:293 JLINK_WriteReg(R8, 0x00000000)  returns 0x00 (0000ms, 0427ms total)
T24AC 008:293 JLINK_WriteReg(R9, 0x20000174)  returns 0x00 (0000ms, 0427ms total)
T24AC 008:294 JLINK_WriteReg(R10, 0x00000000)  returns 0x00 (0000ms, 0427ms total)
T24AC 008:294 JLINK_WriteReg(R11, 0x00000000)  returns 0x00 (0000ms, 0427ms total)
T24AC 008:294 JLINK_WriteReg(R12, 0x00000000)  returns 0x00 (0000ms, 0427ms total)
T24AC 008:294 JLINK_WriteReg(R13 (SP), 0x20001000)  returns 0x00 (0000ms, 0427ms total)
T24AC 008:294 JLINK_WriteReg(R14, 0x20000001)  returns 0x00 (0000ms, 0427ms total)
T24AC 008:294 JLINK_WriteReg(R15 (PC), 0x20000106)  returns 0x00 (0000ms, 0427ms total)
T24AC 008:294 JLINK_WriteReg(XPSR, 0x01000000)  returns 0x00 (0000ms, 0427ms total)
T24AC 008:294 JLINK_WriteReg(MSP, 0x20001000)  returns 0x00 (0000ms, 0427ms total)
T24AC 008:294 JLINK_WriteReg(PSP, 0x20001000)  returns 0x00 (0000ms, 0427ms total)
T24AC 008:294 JLINK_WriteReg(CFBP, 0x00000000)  returns 0x00 (0000ms, 0427ms total)
T24AC 008:294 JLINK_SetBPEx(Addr = 0x20000000, Type = 0xFFFFFFF2)  returns 0x00000008 (0000ms, 0427ms total)
T24AC 008:294 JLINK_Go() -- CPU_ReadMem(4 bytes @ 0xE0001000) (0003ms, 0430ms total)
T24AC 008:297 JLINK_IsHalted()  returns FALSE (0001ms, 0431ms total)
T24AC 008:303 JLINK_IsHalted()  returns FALSE (0000ms, 0430ms total)
T24AC 008:305 JLINK_IsHalted()  returns FALSE (0000ms, 0430ms total)
T24AC 008:307 JLINK_IsHalted()  returns FALSE (0000ms, 0430ms total)
T24AC 008:309 JLINK_IsHalted()  returns FALSE (0000ms, 0430ms total)
T24AC 008:311 JLINK_IsHalted()  returns FALSE (0000ms, 0430ms total)
T24AC 008:313 JLINK_IsHalted()  returns FALSE (0000ms, 0430ms total)
T24AC 008:315 JLINK_IsHalted()  returns FALSE (0000ms, 0430ms total)
T24AC 008:317 JLINK_IsHalted()  returns FALSE (0000ms, 0430ms total)
T24AC 008:319 JLINK_IsHalted()  returns FALSE (0000ms, 0430ms total)
T24AC 008:321 JLINK_IsHalted()  returns FALSE (0000ms, 0430ms total)
T24AC 008:323 JLINK_IsHalted()  returns FALSE (0000ms, 0430ms total)
T24AC 008:324 JLINK_IsHalted()  returns FALSE (0000ms, 0430ms total)
T24AC 008:326 JLINK_IsHalted() -- CPU_ReadMem(2 bytes @ 0x20000000)  returns TRUE (0003ms, 0433ms total)
T24AC 008:329 JLINK_ReadReg(R15 (PC))  returns 0x20000000 (0000ms, 0430ms total)
T24AC 008:329 JLINK_ClrBPEx(BPHandle = 0x00000008)  returns 0x00 (0000ms, 0430ms total)
T24AC 008:329 JLINK_ReadReg(R0)  returns 0x00000000 (0000ms, 0430ms total)
T24AC 008:330 JLINK_WriteMem(0x20000178, 0x0288 Bytes, ...) - Data: F0 01 41 4A 08 3A 51 60 7D E0 3F 49 28 31 88 42 ... -- CPU_WriteMem(648 bytes @ 0x20000178)  returns 0x288 (0005ms, 0435ms total)
T24AC 008:335 JLINK_WriteMem(0x20000400, 0x0178 Bytes, ...) - Data: 01 00 8D F8 02 00 01 20 8D F8 03 00 68 46 00 F0 ... -- CPU_WriteMem(376 bytes @ 0x20000400)  returns 0x178 (0002ms, 0437ms total)
T24AC 008:337 JLINK_WriteReg(R0, 0x08000400)  returns 0x00 (0000ms, 0437ms total)
T24AC 008:337 JLINK_WriteReg(R1, 0x00000400)  returns 0x00 (0000ms, 0437ms total)
T24AC 008:337 JLINK_WriteReg(R2, 0x20000178)  returns 0x00 (0000ms, 0437ms total)
T24AC 008:337 JLINK_WriteReg(R3, 0x00000000)  returns 0x00 (0001ms, 0438ms total)
T24AC 008:338 JLINK_WriteReg(R4, 0x00000000)  returns 0x00 (0000ms, 0438ms total)
T24AC 008:338 JLINK_WriteReg(R5, 0x00000000)  returns 0x00 (0000ms, 0438ms total)
T24AC 008:338 JLINK_WriteReg(R6, 0x00000000)  returns 0x00 (0000ms, 0438ms total)
T24AC 008:338 JLINK_WriteReg(R7, 0x00000000)  returns 0x00 (0000ms, 0438ms total)
T24AC 008:338 JLINK_WriteReg(R8, 0x00000000)  returns 0x00 (0000ms, 0438ms total)
T24AC 008:338 JLINK_WriteReg(R9, 0x20000174)  returns 0x00 (0000ms, 0438ms total)
T24AC 008:338 JLINK_WriteReg(R10, 0x00000000)  returns 0x00 (0000ms, 0438ms total)
T24AC 008:338 JLINK_WriteReg(R11, 0x00000000)  returns 0x00 (0000ms, 0438ms total)
T24AC 008:338 JLINK_WriteReg(R12, 0x00000000)  returns 0x00 (0000ms, 0438ms total)
T24AC 008:338 JLINK_WriteReg(R13 (SP), 0x20001000)  returns 0x00 (0000ms, 0438ms total)
T24AC 008:338 JLINK_WriteReg(R14, 0x20000001)  returns 0x00 (0000ms, 0438ms total)
T24AC 008:338 JLINK_WriteReg(R15 (PC), 0x20000106)  returns 0x00 (0000ms, 0438ms total)
T24AC 008:338 JLINK_WriteReg(XPSR, 0x01000000)  returns 0x00 (0000ms, 0438ms total)
T24AC 008:338 JLINK_WriteReg(MSP, 0x20001000)  returns 0x00 (0000ms, 0438ms total)
T24AC 008:338 JLINK_WriteReg(PSP, 0x20001000)  returns 0x00 (0000ms, 0438ms total)
T24AC 008:338 JLINK_WriteReg(CFBP, 0x00000000)  returns 0x00 (0000ms, 0438ms total)
T24AC 008:338 JLINK_SetBPEx(Addr = 0x20000000, Type = 0xFFFFFFF2)  returns 0x00000009 (0000ms, 0438ms total)
T24AC 008:338 JLINK_Go() -- CPU_ReadMem(4 bytes @ 0xE0001000) (0004ms, 0442ms total)
T24AC 008:342 JLINK_IsHalted()  returns FALSE (0000ms, 0442ms total)
T24AC 008:344 JLINK_IsHalted()  returns FALSE (0000ms, 0442ms total)
T24AC 008:346 JLINK_IsHalted()  returns FALSE (0000ms, 0442ms total)
T24AC 008:348 JLINK_IsHalted()  returns FALSE (0000ms, 0442ms total)
T24AC 008:350 JLINK_IsHalted()  returns FALSE (0000ms, 0442ms total)
T24AC 008:352 JLINK_IsHalted()  returns FALSE (0000ms, 0442ms total)
T24AC 008:354 JLINK_IsHalted()  returns FALSE (0000ms, 0442ms total)
T24AC 008:356 JLINK_IsHalted()  returns FALSE (0000ms, 0442ms total)
T24AC 008:358 JLINK_IsHalted()  returns FALSE (0000ms, 0442ms total)
T24AC 008:360 JLINK_IsHalted()  returns FALSE (0000ms, 0442ms total)
T24AC 008:362 JLINK_IsHalted()  returns FALSE (0000ms, 0442ms total)
T24AC 008:364 JLINK_IsHalted()  returns FALSE (0000ms, 0442ms total)
T24AC 008:365 JLINK_IsHalted()  returns FALSE (0000ms, 0442ms total)
T24AC 008:367 JLINK_IsHalted()  returns FALSE (0000ms, 0442ms total)
T24AC 008:369 JLINK_IsHalted()  returns FALSE (0000ms, 0442ms total)
T24AC 008:371 JLINK_IsHalted() -- CPU_ReadMem(2 bytes @ 0x20000000)  returns TRUE (0003ms, 0445ms total)
T24AC 008:374 JLINK_ReadReg(R15 (PC))  returns 0x20000000 (0000ms, 0442ms total)
T24AC 008:374 JLINK_ClrBPEx(BPHandle = 0x00000009)  returns 0x00 (0000ms, 0442ms total)
T24AC 008:374 JLINK_ReadReg(R0)  returns 0x00000000 (0000ms, 0442ms total)
T24AC 008:375 JLINK_WriteMem(0x20000178, 0x0288 Bytes, ...) - Data: 30 4D 4D 43 05 60 02 E0 2C 4D 4D 43 05 60 2A 4D ... -- CPU_WriteMem(648 bytes @ 0x20000178)  returns 0x288 (0004ms, 0446ms total)
T24AC 008:379 JLINK_WriteMem(0x20000400, 0x0178 Bytes, ...) - Data: 02 98 B0 FB F2 F1 48 1E B0 F1 80 7F 01 D3 01 20 ... -- CPU_WriteMem(376 bytes @ 0x20000400)  returns 0x178 (0003ms, 0449ms total)
T24AC 008:382 JLINK_WriteReg(R0, 0x08000800)  returns 0x00 (0000ms, 0449ms total)
T24AC 008:382 JLINK_WriteReg(R1, 0x00000400)  returns 0x00 (0000ms, 0449ms total)
T24AC 008:382 JLINK_WriteReg(R2, 0x20000178)  returns 0x00 (0000ms, 0449ms total)
T24AC 008:382 JLINK_WriteReg(R3, 0x00000000)  returns 0x00 (0000ms, 0449ms total)
T24AC 008:382 JLINK_WriteReg(R4, 0x00000000)  returns 0x00 (0000ms, 0449ms total)
T24AC 008:382 JLINK_WriteReg(R5, 0x00000000)  returns 0x00 (0000ms, 0449ms total)
T24AC 008:382 JLINK_WriteReg(R6, 0x00000000)  returns 0x00 (0000ms, 0449ms total)
T24AC 008:382 JLINK_WriteReg(R7, 0x00000000)  returns 0x00 (0000ms, 0449ms total)
T24AC 008:382 JLINK_WriteReg(R8, 0x00000000)  returns 0x00 (0000ms, 0449ms total)
T24AC 008:382 JLINK_WriteReg(R9, 0x20000174)  returns 0x00 (0000ms, 0449ms total)
T24AC 008:382 JLINK_WriteReg(R10, 0x00000000)  returns 0x00 (0000ms, 0449ms total)
T24AC 008:382 JLINK_WriteReg(R11, 0x00000000)  returns 0x00 (0000ms, 0449ms total)
T24AC 008:382 JLINK_WriteReg(R12, 0x00000000)  returns 0x00 (0000ms, 0449ms total)
T24AC 008:382 JLINK_WriteReg(R13 (SP), 0x20001000)  returns 0x00 (0000ms, 0449ms total)
T24AC 008:382 JLINK_WriteReg(R14, 0x20000001)  returns 0x00 (0000ms, 0449ms total)
T24AC 008:382 JLINK_WriteReg(R15 (PC), 0x20000106)  returns 0x00 (0000ms, 0449ms total)
T24AC 008:382 JLINK_WriteReg(XPSR, 0x01000000)  returns 0x00 (0000ms, 0449ms total)
T24AC 008:382 JLINK_WriteReg(MSP, 0x20001000)  returns 0x00 (0000ms, 0449ms total)
T24AC 008:382 JLINK_WriteReg(PSP, 0x20001000)  returns 0x00 (0000ms, 0449ms total)
T24AC 008:382 JLINK_WriteReg(CFBP, 0x00000000)  returns 0x00 (0000ms, 0449ms total)
T24AC 008:382 JLINK_SetBPEx(Addr = 0x20000000, Type = 0xFFFFFFF2)  returns 0x0000000A (0000ms, 0449ms total)
T24AC 008:382 JLINK_Go() -- CPU_ReadMem(4 bytes @ 0xE0001000) (0004ms, 0453ms total)
T24AC 008:386 JLINK_IsHalted()  returns FALSE (0001ms, 0454ms total)
T24AC 008:390 JLINK_IsHalted()  returns FALSE (0000ms, 0453ms total)
T24AC 008:392 JLINK_IsHalted()  returns FALSE (0000ms, 0453ms total)
T24AC 008:394 JLINK_IsHalted()  returns FALSE (0000ms, 0453ms total)
T24AC 008:396 JLINK_IsHalted()  returns FALSE (0000ms, 0453ms total)
T24AC 008:398 JLINK_IsHalted()  returns FALSE (0000ms, 0453ms total)
T24AC 008:400 JLINK_IsHalted()  returns FALSE (0000ms, 0453ms total)
T24AC 008:402 JLINK_IsHalted()  returns FALSE (0000ms, 0453ms total)
T24AC 008:403 JLINK_IsHalted()  returns FALSE (0000ms, 0453ms total)
T24AC 008:406 JLINK_IsHalted()  returns FALSE (0000ms, 0453ms total)
T24AC 008:408 JLINK_IsHalted()  returns FALSE (0000ms, 0453ms total)
T24AC 008:410 JLINK_IsHalted()  returns FALSE (0000ms, 0453ms total)
T24AC 008:412 JLINK_IsHalted()  returns FALSE (0000ms, 0453ms total)
T24AC 008:414 JLINK_IsHalted() -- CPU_ReadMem(2 bytes @ 0x20000000)  returns TRUE (0003ms, 0456ms total)
T24AC 008:417 JLINK_ReadReg(R15 (PC))  returns 0x20000000 (0000ms, 0453ms total)
T24AC 008:417 JLINK_ClrBPEx(BPHandle = 0x0000000A)  returns 0x00 (0000ms, 0453ms total)
T24AC 008:417 JLINK_ReadReg(R0)  returns 0x00000000 (0000ms, 0453ms total)
T24AC 008:418 JLINK_WriteMem(0x20000178, 0x0288 Bytes, ...) - Data: 4C 38 FF F7 41 FB 01 21 36 48 4C 38 FF F7 E5 FA ... -- CPU_WriteMem(648 bytes @ 0x20000178)  returns 0x288 (0005ms, 0458ms total)
T24AC 008:423 JLINK_WriteMem(0x20000400, 0x0178 Bytes, ...) - Data: FF FF FF FF FF FF FF FF FF FF FF FF FF FF FF FF ... -- CPU_WriteMem(376 bytes @ 0x20000400)  returns 0x178 (0002ms, 0460ms total)
T24AC 008:425 JLINK_WriteReg(R0, 0x08000C00)  returns 0x00 (0000ms, 0460ms total)
T24AC 008:425 JLINK_WriteReg(R1, 0x0000012C)  returns 0x00 (0000ms, 0460ms total)
T24AC 008:425 JLINK_WriteReg(R2, 0x20000178)  returns 0x00 (0000ms, 0460ms total)
T24AC 008:426 JLINK_WriteReg(R3, 0x00000000)  returns 0x00 (0000ms, 0461ms total)
T24AC 008:426 JLINK_WriteReg(R4, 0x00000000)  returns 0x00 (0000ms, 0461ms total)
T24AC 008:426 JLINK_WriteReg(R5, 0x00000000)  returns 0x00 (0000ms, 0461ms total)
T24AC 008:426 JLINK_WriteReg(R6, 0x00000000)  returns 0x00 (0000ms, 0461ms total)
T24AC 008:426 JLINK_WriteReg(R7, 0x00000000)  returns 0x00 (0000ms, 0461ms total)
T24AC 008:426 JLINK_WriteReg(R8, 0x00000000)  returns 0x00 (0000ms, 0461ms total)
T24AC 008:426 JLINK_WriteReg(R9, 0x20000174)  returns 0x00 (0000ms, 0461ms total)
T24AC 008:426 JLINK_WriteReg(R10, 0x00000000)  returns 0x00 (0000ms, 0461ms total)
T24AC 008:426 JLINK_WriteReg(R11, 0x00000000)  returns 0x00 (0000ms, 0461ms total)
T24AC 008:426 JLINK_WriteReg(R12, 0x00000000)  returns 0x00 (0000ms, 0461ms total)
T24AC 008:426 JLINK_WriteReg(R13 (SP), 0x20001000)  returns 0x00 (0000ms, 0461ms total)
T24AC 008:426 JLINK_WriteReg(R14, 0x20000001)  returns 0x00 (0000ms, 0461ms total)
T24AC 008:426 JLINK_WriteReg(R15 (PC), 0x20000106)  returns 0x00 (0000ms, 0461ms total)
T24AC 008:426 JLINK_WriteReg(XPSR, 0x01000000)  returns 0x00 (0000ms, 0461ms total)
T24AC 008:426 JLINK_WriteReg(MSP, 0x20001000)  returns 0x00 (0000ms, 0461ms total)
T24AC 008:426 JLINK_WriteReg(PSP, 0x20001000)  returns 0x00 (0000ms, 0461ms total)
T24AC 008:426 JLINK_WriteReg(CFBP, 0x00000000)  returns 0x00 (0000ms, 0461ms total)
T24AC 008:426 JLINK_SetBPEx(Addr = 0x20000000, Type = 0xFFFFFFF2)  returns 0x0000000B (0000ms, 0461ms total)
T24AC 008:426 JLINK_Go() -- CPU_ReadMem(4 bytes @ 0xE0001000) (0004ms, 0465ms total)
T24AC 008:430 JLINK_IsHalted()  returns FALSE (0000ms, 0465ms total)
T24AC 008:432 JLINK_IsHalted()  returns FALSE (0000ms, 0465ms total)
T24AC 008:434 JLINK_IsHalted()  returns FALSE (0000ms, 0465ms total)
T24AC 008:436 JLINK_IsHalted()  returns FALSE (0000ms, 0465ms total)
T24AC 008:438 JLINK_IsHalted() -- CPU_ReadMem(2 bytes @ 0x20000000)  returns TRUE (0003ms, 0468ms total)
T24AC 008:441 JLINK_ReadReg(R15 (PC))  returns 0x20000000 (0000ms, 0465ms total)
T24AC 008:441 JLINK_ClrBPEx(BPHandle = 0x0000000B)  returns 0x00 (0000ms, 0465ms total)
T24AC 008:441 JLINK_ReadReg(R0)  returns 0x00000000 (0000ms, 0465ms total)
T24AC 008:441 JLINK_WriteReg(R0, 0x00000002)  returns 0x00 (0000ms, 0465ms total)
T24AC 008:441 JLINK_WriteReg(R1, 0x0000012C)  returns 0x00 (0000ms, 0465ms total)
T24AC 008:441 JLINK_WriteReg(R2, 0x20000178)  returns 0x00 (0000ms, 0465ms total)
T24AC 008:441 JLINK_WriteReg(R3, 0x00000000)  returns 0x00 (0000ms, 0465ms total)
T24AC 008:441 JLINK_WriteReg(R4, 0x00000000)  returns 0x00 (0000ms, 0465ms total)
T24AC 008:441 JLINK_WriteReg(R5, 0x00000000)  returns 0x00 (0000ms, 0465ms total)
T24AC 008:441 JLINK_WriteReg(R6, 0x00000000)  returns 0x00 (0000ms, 0465ms total)
T24AC 008:441 JLINK_WriteReg(R7, 0x00000000)  returns 0x00 (0000ms, 0465ms total)
T24AC 008:441 JLINK_WriteReg(R8, 0x00000000)  returns 0x00 (0000ms, 0465ms total)
T24AC 008:441 JLINK_WriteReg(R9, 0x20000174)  returns 0x00 (0000ms, 0465ms total)
T24AC 008:441 JLINK_WriteReg(R10, 0x00000000)  returns 0x00 (0000ms, 0465ms total)
T24AC 008:441 JLINK_WriteReg(R11, 0x00000000)  returns 0x00 (0000ms, 0465ms total)
T24AC 008:441 JLINK_WriteReg(R12, 0x00000000)  returns 0x00 (0001ms, 0466ms total)
T24AC 008:442 JLINK_WriteReg(R13 (SP), 0x20001000)  returns 0x00 (0000ms, 0466ms total)
T24AC 008:442 JLINK_WriteReg(R14, 0x20000001)  returns 0x00 (0000ms, 0466ms total)
T24AC 008:442 JLINK_WriteReg(R15 (PC), 0x20000066)  returns 0x00 (0000ms, 0466ms total)
T24AC 008:442 JLINK_WriteReg(XPSR, 0x01000000)  returns 0x00 (0000ms, 0466ms total)
T24AC 008:442 JLINK_WriteReg(MSP, 0x20001000)  returns 0x00 (0000ms, 0466ms total)
T24AC 008:442 JLINK_WriteReg(PSP, 0x20001000)  returns 0x00 (0000ms, 0466ms total)
T24AC 008:442 JLINK_WriteReg(CFBP, 0x00000000)  returns 0x00 (0000ms, 0466ms total)
T24AC 008:442 JLINK_SetBPEx(Addr = 0x20000000, Type = 0xFFFFFFF2)  returns 0x0000000C (0000ms, 0466ms total)
T24AC 008:442 JLINK_Go() -- CPU_ReadMem(4 bytes @ 0xE0001000) (0002ms, 0468ms total)
T24AC 008:445 JLINK_IsHalted() -- CPU_ReadMem(2 bytes @ 0x20000000)  returns TRUE (0003ms, 0472ms total)
T24AC 008:448 JLINK_ReadReg(R15 (PC))  returns 0x20000000 (0000ms, 0469ms total)
T24AC 008:448 JLINK_ClrBPEx(BPHandle = 0x0000000C)  returns 0x00 (0000ms, 0469ms total)
T24AC 008:448 JLINK_ReadReg(R0)  returns 0x00000000 (0000ms, 0469ms total)
T24AC 008:507 JLINK_WriteMem(0x20000000, 0x0178 Bytes, ...) - Data: 00 BE 0A E0 0D 78 2D 06 68 40 08 24 40 00 00 D3 ... -- CPU_WriteMem(376 bytes @ 0x20000000)  returns 0x178 (0003ms, 0472ms total)
T24AC 008:510 JLINK_WriteReg(R0, 0x08000000)  returns 0x00 (0000ms, 0472ms total)
T24AC 008:510 JLINK_WriteReg(R1, 0x00B71B00)  returns 0x00 (0000ms, 0472ms total)
T24AC 008:510 JLINK_WriteReg(R2, 0x00000003)  returns 0x00 (0000ms, 0472ms total)
T24AC 008:510 JLINK_WriteReg(R3, 0x00000000)  returns 0x00 (0000ms, 0472ms total)
T24AC 008:510 JLINK_WriteReg(R4, 0x00000000)  returns 0x00 (0000ms, 0472ms total)
T24AC 008:510 JLINK_WriteReg(R5, 0x00000000)  returns 0x00 (0000ms, 0472ms total)
T24AC 008:510 JLINK_WriteReg(R6, 0x00000000)  returns 0x00 (0000ms, 0472ms total)
T24AC 008:510 JLINK_WriteReg(R7, 0x00000000)  returns 0x00 (0000ms, 0472ms total)
T24AC 008:510 JLINK_WriteReg(R8, 0x00000000)  returns 0x00 (0000ms, 0472ms total)
T24AC 008:510 JLINK_WriteReg(R9, 0x20000174)  returns 0x00 (0000ms, 0472ms total)
T24AC 008:510 JLINK_WriteReg(R10, 0x00000000)  returns 0x00 (0000ms, 0472ms total)
T24AC 008:510 JLINK_WriteReg(R11, 0x00000000)  returns 0x00 (0000ms, 0472ms total)
T24AC 008:510 JLINK_WriteReg(R12, 0x00000000)  returns 0x00 (0000ms, 0472ms total)
T24AC 008:510 JLINK_WriteReg(R13 (SP), 0x20001000)  returns 0x00 (0000ms, 0472ms total)
T24AC 008:510 JLINK_WriteReg(R14, 0x20000001)  returns 0x00 (0000ms, 0472ms total)
T24AC 008:510 JLINK_WriteReg(R15 (PC), 0x20000038)  returns 0x00 (0000ms, 0472ms total)
T24AC 008:510 JLINK_WriteReg(XPSR, 0x01000000)  returns 0x00 (0000ms, 0472ms total)
T24AC 008:510 JLINK_WriteReg(MSP, 0x20001000)  returns 0x00 (0000ms, 0472ms total)
T24AC 008:510 JLINK_WriteReg(PSP, 0x20001000)  returns 0x00 (0001ms, 0473ms total)
T24AC 008:511 JLINK_WriteReg(CFBP, 0x00000000)  returns 0x00 (0000ms, 0473ms total)
T24AC 008:511 JLINK_SetBPEx(Addr = 0x20000000, Type = 0xFFFFFFF2) -- CPU_ReadMem(4 bytes @ 0x20000000) -- CPU_WriteMem(4 bytes @ 0x20000000) -- CPU_ReadMem(4 bytes @ 0x20000000) -- CPU_WriteMem(4 bytes @ 0x20000000) -- CPU_ReadMem(2 bytes @ 0x20000000)  returns 0x0000000D (0002ms, 0475ms total)
T24AC 008:513 JLINK_Go() -- CPU_WriteMem(2 bytes @ 0x20000000) -- CPU_ReadMem(4 bytes @ 0xE0001000) (0004ms, 0479ms total)
T24AC 008:517 JLINK_IsHalted() -- CPU_ReadMem(2 bytes @ 0x20000000)  returns TRUE (0003ms, 0482ms total)
T24AC 008:520 JLINK_ReadReg(R15 (PC))  returns 0x20000000 (0000ms, 0479ms total)
T24AC 008:520 JLINK_ClrBPEx(BPHandle = 0x0000000D)  returns 0x00 (0000ms, 0479ms total)
T24AC 008:520 JLINK_ReadReg(R0)  returns 0x00000000 (0000ms, 0479ms total)
T24AC 008:520 JLINK_WriteReg(R0, 0xFFFFFFFF)  returns 0x00 (0000ms, 0479ms total)
T24AC 008:520 JLINK_WriteReg(R1, 0x08000000)  returns 0x00 (0000ms, 0479ms total)
T24AC 008:520 JLINK_WriteReg(R2, 0x00000D2C)  returns 0x00 (0000ms, 0479ms total)
T24AC 008:520 JLINK_WriteReg(R3, 0x04C11DB7)  returns 0x00 (0000ms, 0479ms total)
T24AC 008:520 JLINK_WriteReg(R4, 0x00000000)  returns 0x00 (0000ms, 0479ms total)
T24AC 008:520 JLINK_WriteReg(R5, 0x00000000)  returns 0x00 (0000ms, 0479ms total)
T24AC 008:520 JLINK_WriteReg(R6, 0x00000000)  returns 0x00 (0000ms, 0479ms total)
T24AC 008:520 JLINK_WriteReg(R7, 0x00000000)  returns 0x00 (0000ms, 0479ms total)
T24AC 008:520 JLINK_WriteReg(R8, 0x00000000)  returns 0x00 (0000ms, 0479ms total)
T24AC 008:520 JLINK_WriteReg(R9, 0x20000174)  returns 0x00 (0000ms, 0479ms total)
T24AC 008:520 JLINK_WriteReg(R10, 0x00000000)  returns 0x00 (0000ms, 0479ms total)
T24AC 008:520 JLINK_WriteReg(R11, 0x00000000)  returns 0x00 (0000ms, 0479ms total)
T24AC 008:520 JLINK_WriteReg(R12, 0x00000000)  returns 0x00 (0001ms, 0480ms total)
T24AC 008:521 JLINK_WriteReg(R13 (SP), 0x20001000)  returns 0x00 (0000ms, 0480ms total)
T24AC 008:521 JLINK_WriteReg(R14, 0x20000001)  returns 0x00 (0000ms, 0480ms total)
T24AC 008:521 JLINK_WriteReg(R15 (PC), 0x20000002)  returns 0x00 (0000ms, 0480ms total)
T24AC 008:521 JLINK_WriteReg(XPSR, 0x01000000)  returns 0x00 (0000ms, 0480ms total)
T24AC 008:521 JLINK_WriteReg(MSP, 0x20001000)  returns 0x00 (0000ms, 0480ms total)
T24AC 008:521 JLINK_WriteReg(PSP, 0x20001000)  returns 0x00 (0000ms, 0480ms total)
T24AC 008:521 JLINK_WriteReg(CFBP, 0x00000000)  returns 0x00 (0000ms, 0480ms total)
T24AC 008:521 JLINK_SetBPEx(Addr = 0x20000000, Type = 0xFFFFFFF2)  returns 0x0000000E (0000ms, 0480ms total)
T24AC 008:521 JLINK_Go() -- CPU_ReadMem(4 bytes @ 0xE0001000) (0002ms, 0482ms total)
T24AC 008:523 JLINK_IsHalted()  returns FALSE (0001ms, 0483ms total)
T24AC 008:528 JLINK_IsHalted()  returns FALSE (0000ms, 0482ms total)
T24AC 008:530 JLINK_IsHalted()  returns FALSE (0000ms, 0482ms total)
T24AC 008:532 JLINK_IsHalted()  returns FALSE (0000ms, 0482ms total)
T24AC 008:534 JLINK_IsHalted()  returns FALSE (0000ms, 0482ms total)
T24AC 008:536 JLINK_IsHalted()  returns FALSE (0000ms, 0482ms total)
T24AC 008:538 JLINK_IsHalted()  returns FALSE (0000ms, 0482ms total)
T24AC 008:540 JLINK_IsHalted()  returns FALSE (0000ms, 0482ms total)
T24AC 008:542 JLINK_IsHalted()  returns FALSE (0000ms, 0482ms total)
T24AC 008:544 JLINK_IsHalted()  returns FALSE (0000ms, 0482ms total)
T24AC 008:546 JLINK_IsHalted()  returns FALSE (0000ms, 0482ms total)
T24AC 008:548 JLINK_IsHalted()  returns FALSE (0000ms, 0482ms total)
T24AC 008:550 JLINK_IsHalted()  returns FALSE (0000ms, 0482ms total)
T24AC 008:552 JLINK_IsHalted()  returns FALSE (0000ms, 0482ms total)
T24AC 008:554 JLINK_IsHalted()  returns FALSE (0000ms, 0482ms total)
T24AC 008:556 JLINK_IsHalted()  returns FALSE (0000ms, 0482ms total)
T24AC 008:559 JLINK_IsHalted()  returns FALSE (0000ms, 0482ms total)
T24AC 008:561 JLINK_IsHalted()  returns FALSE (0000ms, 0482ms total)
T24AC 008:562 JLINK_IsHalted()  returns FALSE (0000ms, 0482ms total)
T24AC 008:564 JLINK_IsHalted()  returns FALSE (0000ms, 0482ms total)
T24AC 008:566 JLINK_IsHalted()  returns FALSE (0000ms, 0482ms total)
T24AC 008:568 JLINK_IsHalted()  returns FALSE (0000ms, 0482ms total)
T24AC 008:570 JLINK_IsHalted()  returns FALSE (0000ms, 0482ms total)
T24AC 008:572 JLINK_IsHalted()  returns FALSE (0000ms, 0482ms total)
T24AC 008:574 JLINK_IsHalted()  returns FALSE (0000ms, 0482ms total)
T24AC 008:576 JLINK_IsHalted()  returns FALSE (0000ms, 0482ms total)
T24AC 008:578 JLINK_IsHalted()  returns FALSE (0000ms, 0482ms total)
T24AC 008:580 JLINK_IsHalted()  returns FALSE (0000ms, 0482ms total)
T24AC 008:582 JLINK_IsHalted() -- CPU_ReadMem(2 bytes @ 0x20000000)  returns TRUE (0003ms, 0485ms total)
T24AC 008:585 JLINK_ReadReg(R15 (PC))  returns 0x20000000 (0000ms, 0482ms total)
T24AC 008:585 JLINK_ClrBPEx(BPHandle = 0x0000000E)  returns 0x00 (0000ms, 0482ms total)
T24AC 008:585 JLINK_ReadReg(R0)  returns 0x9FC7FAB8 (0000ms, 0482ms total)
T24AC 008:587 JLINK_WriteReg(R0, 0x00000003)  returns 0x00 (0000ms, 0482ms total)
T24AC 008:587 JLINK_WriteReg(R1, 0x08000000)  returns 0x00 (0000ms, 0482ms total)
T24AC 008:587 JLINK_WriteReg(R2, 0x00000D2C)  returns 0x00 (0000ms, 0482ms total)
T24AC 008:587 JLINK_WriteReg(R3, 0x04C11DB7)  returns 0x00 (0000ms, 0482ms total)
T24AC 008:587 JLINK_WriteReg(R4, 0x00000000)  returns 0x00 (0000ms, 0482ms total)
T24AC 008:587 JLINK_WriteReg(R5, 0x00000000)  returns 0x00 (0000ms, 0482ms total)
T24AC 008:587 JLINK_WriteReg(R6, 0x00000000)  returns 0x00 (0000ms, 0482ms total)
T24AC 008:587 JLINK_WriteReg(R7, 0x00000000)  returns 0x00 (0000ms, 0482ms total)
T24AC 008:587 JLINK_WriteReg(R8, 0x00000000)  returns 0x00 (0000ms, 0482ms total)
T24AC 008:587 JLINK_WriteReg(R9, 0x20000174)  returns 0x00 (0000ms, 0482ms total)
T24AC 008:587 JLINK_WriteReg(R10, 0x00000000)  returns 0x00 (0000ms, 0482ms total)
